<Qucs Dataset 0.0.17>
<indep frequency 11>
  +4.20000000000e+08
  +4.23000000000e+08
  +4.26000000000e+08
  +4.29000000000e+08
  +4.32000000000e+08
  +4.35000000000e+08
  +4.38000000000e+08
  +4.41000000000e+08
  +4.44000000000e+08
  +4.47000000000e+08
  +4.50000000000e+08
</indep>
<dep S[3,3] frequency>
  +5.10125432941e-01-j1.73636356113e-02
  +5.02109630107e-01-j3.69689726837e-02
  +4.93543397057e-01-j5.59838526650e-02
  +4.84466612035e-01-j7.43932466915e-02
  +4.74919162752e-01-j9.21850210305e-02
  +4.64940719194e-01-j1.09349856520e-01
  +4.54570521421e-01-j1.25881149581e-01
  +4.43847183758e-01-j1.41774897129e-01
  +4.32808516414e-01-j1.57029567745e-01
  +4.21491365269e-01-j1.71645961533e-01
  +4.09931470193e-01-j1.85627061002e-01
</dep>
<dep S[3,1] frequency>
  +7.33124526169e-03+j7.11160416557e-01
  +1.58921458652e-02+j7.16126035659e-01
  +2.45083826777e-02+j7.20891754386e-01
  +3.31730475233e-02+j7.25457901956e-01
  +4.18793525114e-02+j7.29825089696e-01
  +5.06206420574e-02+j7.33994199282e-01
  +5.93904038960e-02+j7.37966370537e-01
  +6.81822790890e-02+j7.41742988864e-01
  +7.69900710288e-02+j7.45325672406e-01
  +8.58077534505e-02+j7.48716259000e-01
  +9.46294774678e-02+j7.51916793004e-01
</dep>
<dep S[3,2] frequency>
  +4.83238985793e-01-j1.21550072028e-02
  +4.82438530773e-01-j2.61384618971e-02
  +4.81038205839e-01-j3.99673069079e-02
  +4.79055411581e-01-j5.36100803287e-02
  +4.76509379301e-01-j6.70371573834e-02
  +4.73420972334e-01-j8.02208544337e-02
  +4.69812483628e-01-j9.31355106458e-02
  +4.65707432190e-01-j1.05757547752e-01
  +4.61130360808e-01-j1.18065508637e-01
  +4.56106637260e-01-j1.30040075738e-01
  +4.50662261011e-01-j1.41664070471e-01
</dep>
<dep S[1,3] frequency>
  +7.33124526169e-03+j7.11160416557e-01
  +1.58921458652e-02+j7.16126035659e-01
  +2.45083826777e-02+j7.20891754386e-01
  +3.31730475233e-02+j7.25457901956e-01
  +4.18793525114e-02+j7.29825089696e-01
  +5.06206420574e-02+j7.33994199282e-01
  +5.93904038960e-02+j7.37966370537e-01
  +6.81822790890e-02+j7.41742988864e-01
  +7.69900710288e-02+j7.45325672406e-01
  +8.58077534505e-02+j7.48716259000e-01
  +9.46294774678e-02+j7.51916793004e-01
</dep>
<dep S[1,1] frequency>
  +3.31067626978e-02+j4.68096709591e-03
  +3.32002815697e-02+j1.00746284817e-02
  +3.34187517664e-02+j1.54266457897e-02
  +3.37593315180e-02+j2.07335647337e-02
  +3.42190826950e-02+j2.59921023831e-02
  +3.47949814217e-02+j3.11991486590e-02
  +3.54839285241e-02+j3.63517671504e-02
  +3.62827597678e-02+j4.14471952823e-02
  +3.71882558492e-02+j4.64828438696e-02
  +3.81971521023e-02+j5.14562960919e-02
  +3.93061478933e-02+j5.63653059258e-02
</dep>
<dep S[1,2] frequency>
  -7.23844726886e-03-j7.02158636248e-01
  -1.54622762798e-02-j6.96755410405e-01
  -2.35001705854e-02-j6.91236113965e-01
  -3.13508160112e-02-j6.85607711867e-01
  -3.90132016878e-02-j6.79877116375e-01
  -4.64866114377e-02-j6.74051172661e-01
  -5.37706144940e-02-j6.68136645260e-01
  -6.08650556325e-02-j6.62140205424e-01
  -6.77700447968e-02-j6.56068419371e-01
  -7.44859462936e-02-j6.49927737465e-01
  -8.10133676346e-02-j6.43724484297e-01
</dep>
<dep S[2,3] frequency>
  +4.83238985793e-01-j1.21550072028e-02
  +4.82438530773e-01-j2.61384618971e-02
  +4.81038205839e-01-j3.99673069079e-02
  +4.79055411581e-01-j5.36100803287e-02
  +4.76509379301e-01-j6.70371573834e-02
  +4.73420972334e-01-j8.02208544337e-02
  +4.69812483628e-01-j9.31355106458e-02
  +4.65707432190e-01-j1.05757547752e-01
  +4.61130360808e-01-j1.18065508637e-01
  +4.56106637260e-01-j1.30040075738e-01
  +4.50662261011e-01-j1.41664070471e-01
</dep>
<dep S[2,1] frequency>
  -7.23844726886e-03-j7.02158636248e-01
  -1.54622762798e-02-j6.96755410405e-01
  -2.35001705854e-02-j6.91236113965e-01
  -3.13508160112e-02-j6.85607711867e-01
  -3.90132016878e-02-j6.79877116375e-01
  -4.64866114377e-02-j6.74051172661e-01
  -5.37706144940e-02-j6.68136645260e-01
  -6.08650556325e-02-j6.62140205424e-01
  -6.77700447968e-02-j6.56068419371e-01
  -7.44859462936e-02-j6.49927737465e-01
  -8.10133676346e-02-j6.43724484297e-01
</dep>
<dep S[2,2] frequency>
  +5.22437409218e-01-j1.76733212218e-02
  +5.28571561213e-01-j3.84026769462e-02
  +5.33969737040e-01-j5.93426959287e-02
  +5.38626211886e-01-j8.04541332371e-02
  +5.42537967665e-01-j1.01697892474e-01
  +5.45704625003e-01-j1.23035244177e-01
  +5.48128356175e-01-j1.44428031621e-01
  +5.49813781005e-01-j1.65838862386e-01
  +5.50767847923e-01-j1.87231284345e-01
  +5.50999702394e-01-j2.08569945077e-01
  +5.50520544976e-01-j2.29820734004e-01
</dep>
