<Qucs Dataset 0.0.17>
<indep frequency 11>
  +9.02000000000e+08
  +9.04600000000e+08
  +9.07200000000e+08
  +9.09800000000e+08
  +9.12400000000e+08
  +9.15000000000e+08
  +9.17600000000e+08
  +9.20200000000e+08
  +9.22800000000e+08
  +9.25400000000e+08
  +9.28000000000e+08
</indep>
<dep S[3,3] frequency>
  -1.36345233230e-01-j4.78351208460e-01
  -1.36630439805e-01-j4.78521731623e-01
  -1.36906542039e-01-j4.78704959923e-01
  -1.37173742147e-01-j4.78901084450e-01
  -1.37432246374e-01-j4.79110294269e-01
  -1.37682264998e-01-j4.79332776325e-01
  -1.37924012338e-01-j4.79568715358e-01
  -1.38157706759e-01-j4.79818293804e-01
  -1.38383570672e-01-j4.80081691706e-01
  -1.38601830534e-01-j4.80359086615e-01
  -1.38812716849e-01-j4.80650653493e-01
</dep>
<dep S[3,2] frequency>
  -1.38536848398e-01-j4.81185771846e-01
  -1.41262158865e-01-j4.80150471850e-01
  -1.43984744490e-01-j4.79095691846e-01
  -1.46704434358e-01-j4.78021324056e-01
  -1.49421053783e-01-j4.76927261990e-01
  -1.52134424289e-01-j4.75813400538e-01
  -1.54844363602e-01-j4.74679636070e-01
  -1.57550685636e-01-j4.73525866530e-01
  -1.60253200485e-01-j4.72351991535e-01
  -1.62951714414e-01-j4.71157912478e-01
  -1.65646029859e-01-j4.69943532626e-01
</dep>
<dep S[3,1] frequency>
  +6.65781665909e-03+j7.06224595233e-01
  +1.06308832916e-02+j7.06167352405e-01
  +1.46125695336e-02+j7.06082272382e-01
  +1.86026687567e-02+j7.05969089343e-01
  +2.26009682045e-02+j7.05827537809e-01
  +2.66072489275e-02+j7.05657352778e-01
  +3.06212857217e-02+j7.05458269846e-01
  +3.46428470685e-02+j7.05230025343e-01
  +3.86716950774e-02+j7.04972356466e-01
  +4.27075854305e-02+j7.04685001420e-01
  +4.67502673308e-02+j7.04367699556e-01
</dep>
<dep S[2,3] frequency>
  -1.38536848398e-01-j4.81185771846e-01
  -1.41262158865e-01-j4.80150471850e-01
  -1.43984744490e-01-j4.79095691846e-01
  -1.46704434358e-01-j4.78021324056e-01
  -1.49421053783e-01-j4.76927261990e-01
  -1.52134424289e-01-j4.75813400538e-01
  -1.54844363602e-01-j4.74679636070e-01
  -1.57550685636e-01-j4.73525866530e-01
  -1.60253200485e-01-j4.72351991535e-01
  -1.62951714414e-01-j4.71157912478e-01
  -1.65646029859e-01-j4.69943532626e-01
</dep>
<dep S[2,2] frequency>
  -1.36345233230e-01-j4.78351208460e-01
  -1.36630439805e-01-j4.78521731623e-01
  -1.36906542039e-01-j4.78704959923e-01
  -1.37173742147e-01-j4.78901084450e-01
  -1.37432246374e-01-j4.79110294269e-01
  -1.37682264998e-01-j4.79332776325e-01
  -1.37924012338e-01-j4.79568715358e-01
  -1.38157706759e-01-j4.79818293804e-01
  -1.38383570672e-01-j4.80081691706e-01
  -1.38601830534e-01-j4.80359086615e-01
  -1.38812716849e-01-j4.80650653493e-01
</dep>
<dep S[2,1] frequency>
  -6.65781665909e-03-j7.06224595233e-01
  -1.06308832916e-02-j7.06167352405e-01
  -1.46125695336e-02-j7.06082272382e-01
  -1.86026687567e-02-j7.05969089343e-01
  -2.26009682045e-02-j7.05827537809e-01
  -2.66072489275e-02-j7.05657352778e-01
  -3.06212857217e-02-j7.05458269846e-01
  -3.46428470685e-02-j7.05230025343e-01
  -3.86716950774e-02-j7.04972356466e-01
  -4.27075854305e-02-j7.04685001420e-01
  -4.67502673308e-02-j7.04367699556e-01
</dep>
<dep S[1,3] frequency>
  +6.65781665909e-03+j7.06224595233e-01
  +1.06308832916e-02+j7.06167352405e-01
  +1.46125695336e-02+j7.06082272382e-01
  +1.86026687567e-02+j7.05969089343e-01
  +2.26009682045e-02+j7.05827537809e-01
  +2.66072489275e-02+j7.05657352778e-01
  +3.06212857217e-02+j7.05458269846e-01
  +3.46428470685e-02+j7.05230025343e-01
  +3.86716950774e-02+j7.04972356466e-01
  +4.27075854305e-02+j7.04685001420e-01
  +4.67502673308e-02+j7.04367699556e-01
</dep>
<dep S[1,2] frequency>
  -6.65781665909e-03-j7.06224595233e-01
  -1.06308832916e-02-j7.06167352405e-01
  -1.46125695336e-02-j7.06082272382e-01
  -1.86026687567e-02-j7.05969089343e-01
  -2.26009682045e-02-j7.05827537809e-01
  -2.66072489275e-02-j7.05657352778e-01
  -3.06212857217e-02-j7.05458269846e-01
  -3.46428470685e-02-j7.05230025343e-01
  -3.86716950774e-02-j7.04972356466e-01
  -4.27075854305e-02-j7.04685001420e-01
  -4.67502673308e-02-j7.04367699556e-01
</dep>
<dep S[1,1] frequency>
  +4.02048250643e-03-j2.91764350491e-03
  +6.47163737087e-03-j1.82826954972e-03
  +8.95522123000e-03-j7.62823292209e-04
  +1.14710913586e-02+j2.78136151738e-04
  +1.40190954825e-02+j1.29404746149e-03
  +1.65990716314e-02+j2.28434726339e-03
  +1.92108479927e-02+j3.24847028795e-03
  +2.18542427672e-02+j4.18584953266e-03
  +2.45290640265e-02+j5.09591643027e-03
  +2.72351095729e-02+j5.97810102285e-03
  +2.99721668003e-02+j6.83183214138e-03
</dep>
