<Qucs Dataset 0.0.17>
<indep frequency 11>
  +4.07000000000e+08
  +4.12000000000e+08
  +4.17000000000e+08
  +4.22000000000e+08
  +4.27000000000e+08
  +4.32000000000e+08
  +4.37000000000e+08
  +4.42000000000e+08
  +4.47000000000e+08
  +4.52000000000e+08
  +4.57000000000e+08
</indep>
<dep S[3,3] frequency>
  +4.19373017596e-01-j2.70801750345e-01
  +4.19333153975e-01-j2.71093127804e-01
  +4.19325343024e-01-j2.71443623769e-01
  +4.19347784743e-01-j2.71852538182e-01
  +4.19398744908e-01-j2.72319186626e-01
  +4.19476551059e-01-j2.72842899947e-01
  +4.19579588765e-01-j2.73423023835e-01
  +4.19706298145e-01-j2.74058918360e-01
  +4.19855170618e-01-j2.74749957481e-01
  +4.20024745879e-01-j2.75495528529e-01
  +4.20213609079e-01-j2.76295031673e-01
</dep>
<dep S[3,2] frequency>
  +4.28045232755e-01-j2.57615252050e-01
  +4.24539483617e-01-j2.62953893919e-01
  +4.20967883050e-01-j2.68204154524e-01
  +4.17332532919e-01-j2.73366505325e-01
  +4.13635470992e-01-j2.78441405952e-01
  +4.09878674891e-01-j2.83429304595e-01
  +4.06064065770e-01-j2.88330638430e-01
  +4.02193511737e-01-j2.93145834092e-01
  +3.98268831046e-01-j2.97875308170e-01
  +3.94291795068e-01-j3.02519467734e-01
  +3.90264131049e-01-j3.07078710870e-01
</dep>
<dep S[3,1] frequency>
  -6.82345749667e-01+j1.83776436842e-01
  -6.80628477553e-01+j1.90230625016e-01
  -6.78837493285e-01+j1.96616185904e-01
  -6.76974759133e-01+j2.02933880639e-01
  -6.75042152557e-01+j2.09184442502e-01
  -6.73041471507e-01+j2.15368577352e-01
  -6.70974439378e-01+j2.21486964125e-01
  -6.68842709639e-01+j2.27540255379e-01
  -6.66647870161e-01+j2.33529077890e-01
  -6.64391447268e-01+j2.39454033278e-01
  -6.62074909525e-01+j2.45315698655e-01
</dep>
<dep S[2,3] frequency>
  +4.28045232755e-01-j2.57615252050e-01
  +4.24539483617e-01-j2.62953893919e-01
  +4.20967883050e-01-j2.68204154524e-01
  +4.17332532919e-01-j2.73366505325e-01
  +4.13635470992e-01-j2.78441405952e-01
  +4.09878674891e-01-j2.83429304595e-01
  +4.06064065770e-01-j2.88330638430e-01
  +4.02193511737e-01-j2.93145834092e-01
  +3.98268831046e-01-j2.97875308170e-01
  +3.94291795068e-01-j3.02519467734e-01
  +3.90264131049e-01-j3.07078710870e-01
</dep>
<dep S[2,2] frequency>
  +4.19373017596e-01-j2.70801750345e-01
  +4.19333153975e-01-j2.71093127804e-01
  +4.19325343024e-01-j2.71443623769e-01
  +4.19347784743e-01-j2.71852538182e-01
  +4.19398744908e-01-j2.72319186626e-01
  +4.19476551059e-01-j2.72842899947e-01
  +4.19579588765e-01-j2.73423023835e-01
  +4.19706298145e-01-j2.74058918360e-01
  +4.19855170618e-01-j2.74749957481e-01
  +4.20024745879e-01-j2.75495528529e-01
  +4.20213609079e-01-j2.76295031673e-01
</dep>
<dep S[2,1] frequency>
  +6.82345749667e-01-j1.83776436842e-01
  +6.80628477553e-01-j1.90230625016e-01
  +6.78837493285e-01-j1.96616185904e-01
  +6.76974759133e-01-j2.02933880639e-01
  +6.75042152557e-01-j2.09184442502e-01
  +6.73041471507e-01-j2.15368577352e-01
  +6.70974439378e-01-j2.21486964125e-01
  +6.68842709639e-01-j2.27540255379e-01
  +6.66647870161e-01-j2.33529077890e-01
  +6.64391447268e-01-j2.39454033278e-01
  +6.62074909525e-01-j2.45315698655e-01
</dep>
<dep S[1,3] frequency>
  -6.82345749667e-01+j1.83776436842e-01
  -6.80628477553e-01+j1.90230625016e-01
  -6.78837493285e-01+j1.96616185904e-01
  -6.76974759133e-01+j2.02933880639e-01
  -6.75042152557e-01+j2.09184442502e-01
  -6.73041471507e-01+j2.15368577352e-01
  -6.70974439378e-01+j2.21486964125e-01
  -6.68842709639e-01+j2.27540255379e-01
  -6.66647870161e-01+j2.33529077890e-01
  -6.64391447268e-01+j2.39454033278e-01
  -6.62074909525e-01+j2.45315698655e-01
</dep>
<dep S[1,2] frequency>
  +6.82345749667e-01-j1.83776436842e-01
  +6.80628477553e-01-j1.90230625016e-01
  +6.78837493285e-01-j1.96616185904e-01
  +6.76974759133e-01-j2.02933880639e-01
  +6.75042152557e-01-j2.09184442502e-01
  +6.73041471507e-01-j2.15368577352e-01
  +6.70974439378e-01-j2.21486964125e-01
  +6.68842709639e-01-j2.27540255379e-01
  +6.66647870161e-01-j2.33529077890e-01
  +6.64391447268e-01-j2.39454033278e-01
  +6.62074909525e-01-j2.45315698655e-01
</dep>
<dep S[1,1] frequency>
  +5.59276048271e-04-j1.55895507343e-02
  -8.46154147914e-05-j9.47705136861e-03
  -6.58423835606e-04-j3.42037726300e-03
  -1.16428755110e-03+j2.58174789334e-03
  -1.60423127463e-03+j8.53056031202e-03
  -1.98017293936e-03+j1.44272565596e-02
  -2.29393009704e-03+j2.02729940931e-02
  -2.54722590404e-03+j2.60688918623e-02
  -2.74169472394e-03+j3.18160309676e-02
  -2.87888737376e-03+j3.75154553622e-02
  -2.96027603894e-03+j4.31681725894e-02
</dep>
