<Qucs Dataset 0.0.17>
<indep frequency 19>
  +1.00000000000e+09
  +1.50000000000e+09
  +2.00000000000e+09
  +2.50000000000e+09
  +3.00000000000e+09
  +3.50000000000e+09
  +4.00000000000e+09
  +4.50000000000e+09
  +5.00000000000e+09
  +5.50000000000e+09
  +6.00000000000e+09
  +6.50000000000e+09
  +7.00000000000e+09
  +7.50000000000e+09
  +8.00000000000e+09
  +8.50000000000e+09
  +9.00000000000e+09
  +9.50000000000e+09
  +1.00000000000e+10
</indep>
<dep S[3,3] frequency>
  -2.64556219690e-01-j7.58222636148e-02
  -2.96525132107e-01-j1.05106974283e-01
  -3.38899453032e-01-j1.23855131563e-01
  -3.88700194896e-01-j1.28581188021e-01
  -4.41524712448e-01-j1.16406561373e-01
  -4.91543272211e-01-j8.57276011969e-02
  -5.31783418309e-01-j3.69550815804e-02
  -5.54693909375e-01+j2.67208865099e-02
  -5.53107494644e-01+j9.84576062143e-02
  -5.22132778036e-01+j1.66820004911e-01
  -4.62885865658e-01+j2.15724716707e-01
  -3.87929393295e-01+j2.28206640815e-01
  -3.23273053725e-01+j1.97440010116e-01
  -2.96496214488e-01+j1.39290076439e-01
  -3.14270158283e-01+j8.66369709361e-02
  -3.57501122484e-01+j6.37234480086e-02
  -4.01338280459e-01+j7.23584416291e-02
  -4.31626672923e-01+j1.01098601183e-01
  -4.45430276900e-01+j1.37764491431e-01
</dep>
<dep S[3,2] frequency>
  +9.68096568129e-02+j2.94247738784e-03
  +9.83007782116e-02+j3.70856833041e-03
  +9.96543100267e-02+j4.05955184405e-03
  +1.00438703850e-01+j4.48220229615e-03
  +1.00476436679e-01+j5.85584379183e-03
  +1.00102335978e-01+j9.42249308982e-03
  +1.00534675108e-01+j1.66417084129e-02
  +1.04365781850e-01+j2.87422649679e-02
  +1.15971471906e-01+j4.56678246371e-02
  +1.41196334550e-01+j6.41608491810e-02
  +1.84994994871e-01+j7.53578654838e-02
  +2.45611159303e-01+j6.43275373695e-02
  +3.07491665766e-01+j1.68300293710e-02
  +3.43729227227e-01-j6.57483376103e-02
  +3.35446572416e-01-j1.59800720366e-01
  +2.87724331372e-01-j2.36551431735e-01
  +2.20895852791e-01-j2.82266499197e-01
  +1.53293800309e-01-j2.99179158531e-01
  +9.45768831094e-02-j2.95976441156e-01
</dep>
<dep S[3,1] frequency>
  +2.75047176408e-01-j5.66298824671e-03
  +2.62580314499e-01-j4.93905116920e-03
  +2.46511421148e-01-j4.86575893210e-04
  +2.27791283296e-01+j8.26603434172e-03
  +2.07234268734e-01+j2.16807078542e-02
  +1.85512067832e-01+j4.01289839626e-02
  +1.63325288342e-01+j6.41561602403e-02
  +1.41680020202e-01+j9.44676679805e-02
  +1.22120778341e-01+j1.31688274645e-01
  +1.06759850269e-01+j1.75958186484e-01
  +9.80127434440e-02+j2.26534322998e-01
  +9.80844940207e-02+j2.81604031977e-01
  +1.08394074389e-01+j3.38449308564e-01
  +1.29183409703e-01+j3.93935157456e-01
  +1.59475626254e-01+j4.45130057942e-01
  +1.97370065233e-01+j4.89814112800e-01
  +2.40513141229e-01+j5.26719674081e-01
  +2.86552322916e-01+j5.55498093886e-01
  +3.33450086912e-01+j5.76510878003e-01
</dep>
<dep S[2,3] frequency>
  +9.68096568129e-02+j2.94247738784e-03
  +9.83007782116e-02+j3.70856833041e-03
  +9.96543100267e-02+j4.05955184405e-03
  +1.00438703850e-01+j4.48220229615e-03
  +1.00476436679e-01+j5.85584379183e-03
  +1.00102335978e-01+j9.42249308982e-03
  +1.00534675108e-01+j1.66417084129e-02
  +1.04365781850e-01+j2.87422649679e-02
  +1.15971471906e-01+j4.56678246371e-02
  +1.41196334550e-01+j6.41608491810e-02
  +1.84994994871e-01+j7.53578654838e-02
  +2.45611159303e-01+j6.43275373695e-02
  +3.07491665766e-01+j1.68300293710e-02
  +3.43729227227e-01-j6.57483376103e-02
  +3.35446572416e-01-j1.59800720366e-01
  +2.87724331372e-01-j2.36551431735e-01
  +2.20895852791e-01-j2.82266499197e-01
  +1.53293800309e-01-j2.99179158531e-01
  +9.45768831094e-02-j2.95976441156e-01
</dep>
<dep S[2,2] frequency>
  -2.49700430379e-01-j7.86338704172e-02
  -2.63714662905e-01-j1.14759750552e-01
  -2.82413897214e-01-j1.47169290274e-01
  -3.04909381496e-01-j1.74825193304e-01
  -3.30136844883e-01-j1.96821949563e-01
  -3.56865804970e-01-j2.12299229853e-01
  -3.83546178798e-01-j2.20307543364e-01
  -4.07883330672e-01-j2.19787003799e-01
  -4.26138485460e-01-j2.09985406441e-01
  -4.32479313949e-01-j1.91821341006e-01
  -4.19510423148e-01-j1.70599103937e-01
  -3.82242954491e-01-j1.59023491087e-01
  -3.26510345168e-01-j1.75516894790e-01
  -2.74234343822e-01-j2.31792571503e-01
  -2.51830421093e-01-j3.18471412327e-01
  -2.69657649480e-01-j4.10366048582e-01
  -3.18702356260e-01-j4.86320109560e-01
  -3.83368534497e-01-j5.38560858370e-01
  -4.51412492057e-01-j5.68788658822e-01
</dep>
<dep S[2,1] frequency>
  +2.96666327694e-01-j1.10934131848e-02
  +3.08691922932e-01-j2.27024311619e-02
  +3.22548302593e-01-j4.08034648399e-02
  +3.35581952891e-01-j6.62711310038e-02
  +3.44895814090e-01-j9.89708045302e-02
  +3.47733690082e-01-j1.37705011469e-01
  +3.41864770794e-01-j1.80312806293e-01
  +3.25908557749e-01-j2.23902697109e-01
  +2.99566777935e-01-j2.65187570171e-01
  +2.63736495094e-01-j3.00900006382e-01
  +2.20460520636e-01-j3.28259995759e-01
  +1.72666113917e-01-j3.45421451941e-01
  +1.23695496561e-01-j3.51771248975e-01
  +7.67317078036e-02-j3.47961556514e-01
  +3.42958285153e-02-j3.35651121544e-01
  -2.03269446362e-03-j3.17057490109e-01
  -3.16291624339e-02-j2.94488248550e-01
  -5.46379480013e-02-j2.69988899830e-01
  -7.17037334781e-02-j2.45160154747e-01
</dep>
<dep S[1,3] frequency>
  +2.75047176408e-01-j5.66298824671e-03
  +2.62580314499e-01-j4.93905116920e-03
  +2.46511421148e-01-j4.86575893210e-04
  +2.27791283296e-01+j8.26603434172e-03
  +2.07234268734e-01+j2.16807078542e-02
  +1.85512067832e-01+j4.01289839626e-02
  +1.63325288342e-01+j6.41561602403e-02
  +1.41680020202e-01+j9.44676679805e-02
  +1.22120778341e-01+j1.31688274645e-01
  +1.06759850269e-01+j1.75958186484e-01
  +9.80127434440e-02+j2.26534322998e-01
  +9.80844940207e-02+j2.81604031977e-01
  +1.08394074389e-01+j3.38449308564e-01
  +1.29183409703e-01+j3.93935157456e-01
  +1.59475626254e-01+j4.45130057942e-01
  +1.97370065233e-01+j4.89814112800e-01
  +2.40513141229e-01+j5.26719674081e-01
  +2.86552322916e-01+j5.55498093886e-01
  +3.33450086912e-01+j5.76510878003e-01
</dep>
<dep S[1,2] frequency>
  +2.96666327694e-01-j1.10934131848e-02
  +3.08691922932e-01-j2.27024311619e-02
  +3.22548302593e-01-j4.08034648399e-02
  +3.35581952891e-01-j6.62711310038e-02
  +3.44895814090e-01-j9.89708045302e-02
  +3.47733690082e-01-j1.37705011469e-01
  +3.41864770794e-01-j1.80312806293e-01
  +3.25908557749e-01-j2.23902697109e-01
  +2.99566777935e-01-j2.65187570171e-01
  +2.63736495094e-01-j3.00900006382e-01
  +2.20460520636e-01-j3.28259995759e-01
  +1.72666113917e-01-j3.45421451941e-01
  +1.23695496561e-01-j3.51771248975e-01
  +7.67317078036e-02-j3.47961556514e-01
  +3.42958285153e-02-j3.35651121544e-01
  -2.03269446362e-03-j3.17057490109e-01
  -3.16291624339e-02-j2.94488248550e-01
  -5.46379480013e-02-j2.69988899830e-01
  -7.17037334781e-02-j2.45160154747e-01
</dep>
<dep S[1,1] frequency>
  -1.60047744739e-01-j7.44013629966e-02
  -1.80604317281e-01-j1.07065699659e-01
  -2.07813080413e-01-j1.34779802304e-01
  -2.40445921075e-01-j1.56578375303e-01
  -2.77305202975e-01-j1.71826801672e-01
  -3.17317086920e-01-j1.80058902831e-01
  -3.59478869236e-01-j1.80796087865e-01
  -4.02671439963e-01-j1.73460042639e-01
  -4.45429824560e-01-j1.57465397044e-01
  -4.85813964449e-01-j1.32496760477e-01
  -5.21503106072e-01-j9.88691209561e-02
  -5.50142223642e-01-j5.77956532299e-02
  -5.69833038891e-01-j1.13986381610e-02
  -5.79565705609e-01+j3.75857273297e-02
  -5.79405808881e-01+j8.63004377630e-02
  -5.70379944748e-01+j1.32258328831e-01
  -5.54148229719e-01+j1.73661125960e-01
  -5.32618721712e-01+j2.09489980092e-01
  -5.07630561771e-01+j2.39414707541e-01
</dep>
