<Qucs Dataset 0.0.17>
<indep frequency 11>
  +4.07000000000e+08
  +4.12000000000e+08
  +4.17000000000e+08
  +4.22000000000e+08
  +4.27000000000e+08
  +4.32000000000e+08
  +4.37000000000e+08
  +4.42000000000e+08
  +4.47000000000e+08
  +4.52000000000e+08
  +4.57000000000e+08
</indep>
<dep S[5,5] frequency>
  +3.62306136938e-01-j3.27223596204e-01
  +3.43759735289e-01-j3.40100016431e-01
  +3.23583033915e-01-j3.51063693891e-01
  +3.01484394023e-01-j3.59803246090e-01
  +2.77378779750e-01-j3.65601620943e-01
  +2.51648764054e-01-j3.67523196323e-01
  +2.25243440139e-01-j3.64740036694e-01
  +1.99555377884e-01-j3.56860433042e-01
  +1.76129691774e-01-j3.44116139050e-01
  +1.56339923787e-01-j3.27347410846e-01
  +1.41155570404e-01-j3.07833083259e-01
</dep>
<dep S[5,4] frequency>
  +4.85112113413e-01-j2.01193406190e-01
  +5.00112902303e-01-j1.93947005292e-01
  +5.16710192158e-01-j1.88584084402e-01
  +5.35195923639e-01-j1.85415797417e-01
  +5.55655436150e-01-j1.85158971636e-01
  +5.77706461896e-01-j1.88749008219e-01
  +6.00400214396e-01-j1.97013625571e-01
  +6.22344431998e-01-j2.10344319410e-01
  +6.41994309890e-01-j2.28509126600e-01
  +6.57976617159e-01-j2.50667585417e-01
  +6.69322169724e-01-j2.75540659284e-01
</dep>
<dep S[5,1] frequency>
  +4.75806616483e-01-j9.55989611218e-02
  +4.66585549197e-01-j1.44719853597e-01
  +4.51480655887e-01-j1.94815251504e-01
  +4.29318724407e-01-j2.45035671062e-01
  +3.99164748769e-01-j2.93813839135e-01
  +3.60740492168e-01-j3.39034093889e-01
  +3.14682902647e-01-j3.78447229280e-01
  +2.62503672190e-01-j4.10175706715e-01
  +2.06259853091e-01-j4.33091500653e-01
  +1.48092845032e-01-j4.46921860824e-01
  +8.98315056884e-02-j4.52088568413e-01
</dep>
<dep S[5,3] frequency>
  -4.17499584784e-02+j9.15562995367e-02
  -1.37477579199e-02+j7.52826050173e-02
  +7.79930738951e-03+j5.25981011484e-02
  +2.13723105108e-02+j2.56175903177e-02
  +2.61900294002e-02-j3.12858859488e-03
  +2.23632070324e-02-j3.10001993640e-02
  +1.08810326182e-02-j5.56318384029e-02
  -6.61073012759e-03-j7.52737865432e-02
  -2.81763268534e-02-j8.89602198463e-02
  -5.19631434942e-02-j9.64562660941e-02
  -7.64556921474e-02-j9.80403155585e-02
</dep>
<dep S[5,2] frequency>
  +4.17499584784e-02-j9.15562995367e-02
  +1.37477579199e-02-j7.52826050173e-02
  -7.79930738951e-03-j5.25981011484e-02
  -2.13723105108e-02-j2.56175903177e-02
  -2.61900294002e-02+j3.12858859488e-03
  -2.23632070324e-02+j3.10001993640e-02
  -1.08810326182e-02+j5.56318384029e-02
  +6.61073012759e-03+j7.52737865432e-02
  +2.81763268534e-02+j8.89602198463e-02
  +5.19631434942e-02+j9.64562660941e-02
  +7.64556921474e-02+j9.80403155585e-02
</dep>
<dep S[4,5] frequency>
  +4.85112113413e-01-j2.01193406190e-01
  +5.00112902303e-01-j1.93947005292e-01
  +5.16710192158e-01-j1.88584084402e-01
  +5.35195923639e-01-j1.85415797417e-01
  +5.55655436150e-01-j1.85158971636e-01
  +5.77706461896e-01-j1.88749008219e-01
  +6.00400214396e-01-j1.97013625571e-01
  +6.22344431998e-01-j2.10344319410e-01
  +6.41994309890e-01-j2.28509126600e-01
  +6.57976617159e-01-j2.50667585417e-01
  +6.69322169724e-01-j2.75540659284e-01
</dep>
<dep S[4,4] frequency>
  +3.62306136938e-01-j3.27223596204e-01
  +3.43759735289e-01-j3.40100016431e-01
  +3.23583033915e-01-j3.51063693891e-01
  +3.01484394023e-01-j3.59803246090e-01
  +2.77378779750e-01-j3.65601620943e-01
  +2.51648764054e-01-j3.67523196323e-01
  +2.25243440139e-01-j3.64740036694e-01
  +1.99555377884e-01-j3.56860433042e-01
  +1.76129691774e-01-j3.44116139050e-01
  +1.56339923787e-01-j3.27347410846e-01
  +1.41155570404e-01-j3.07833083259e-01
</dep>
<dep S[4,1] frequency>
  -4.75806616483e-01+j9.55989611218e-02
  -4.66585549197e-01+j1.44719853597e-01
  -4.51480655887e-01+j1.94815251504e-01
  -4.29318724407e-01+j2.45035671062e-01
  -3.99164748769e-01+j2.93813839135e-01
  -3.60740492168e-01+j3.39034093889e-01
  -3.14682902647e-01+j3.78447229280e-01
  -2.62503672190e-01+j4.10175706715e-01
  -2.06259853091e-01+j4.33091500653e-01
  -1.48092845032e-01+j4.46921860824e-01
  -8.98315056884e-02+j4.52088568413e-01
</dep>
<dep S[4,3] frequency>
  +4.17499584784e-02-j9.15562995367e-02
  +1.37477579199e-02-j7.52826050173e-02
  -7.79930738951e-03-j5.25981011484e-02
  -2.13723105108e-02-j2.56175903177e-02
  -2.61900294002e-02+j3.12858859488e-03
  -2.23632070324e-02+j3.10001993640e-02
  -1.08810326182e-02+j5.56318384029e-02
  +6.61073012759e-03+j7.52737865432e-02
  +2.81763268534e-02+j8.89602198463e-02
  +5.19631434942e-02+j9.64562660941e-02
  +7.64556921474e-02+j9.80403155585e-02
</dep>
<dep S[4,2] frequency>
  -4.17499584784e-02+j9.15562995367e-02
  -1.37477579199e-02+j7.52826050173e-02
  +7.79930738951e-03+j5.25981011484e-02
  +2.13723105108e-02+j2.56175903177e-02
  +2.61900294002e-02-j3.12858859488e-03
  +2.23632070324e-02-j3.10001993640e-02
  +1.08810326182e-02-j5.56318384029e-02
  -6.61073012759e-03-j7.52737865432e-02
  -2.81763268534e-02-j8.89602198463e-02
  -5.19631434942e-02-j9.64562660941e-02
  -7.64556921474e-02-j9.80403155585e-02
</dep>
<dep S[1,5] frequency>
  +4.75806616483e-01-j9.55989611218e-02
  +4.66585549197e-01-j1.44719853597e-01
  +4.51480655887e-01-j1.94815251504e-01
  +4.29318724407e-01-j2.45035671062e-01
  +3.99164748769e-01-j2.93813839135e-01
  +3.60740492168e-01-j3.39034093889e-01
  +3.14682902647e-01-j3.78447229280e-01
  +2.62503672190e-01-j4.10175706715e-01
  +2.06259853091e-01-j4.33091500653e-01
  +1.48092845032e-01-j4.46921860824e-01
  +8.98315056884e-02-j4.52088568413e-01
</dep>
<dep S[1,4] frequency>
  -4.75806616483e-01+j9.55989611218e-02
  -4.66585549197e-01+j1.44719853597e-01
  -4.51480655887e-01+j1.94815251504e-01
  -4.29318724407e-01+j2.45035671062e-01
  -3.99164748769e-01+j2.93813839135e-01
  -3.60740492168e-01+j3.39034093889e-01
  -3.14682902647e-01+j3.78447229280e-01
  -2.62503672190e-01+j4.10175706715e-01
  -2.06259853091e-01+j4.33091500653e-01
  -1.48092845032e-01+j4.46921860824e-01
  -8.98315056884e-02+j4.52088568413e-01
</dep>
<dep S[1,1] frequency>
  -1.31741402173e-01+j1.48956070254e-01
  -1.03548060867e-01+j1.06287713153e-01
  -8.05404520000e-02+j5.74557155809e-02
  -6.50288028292e-02+j3.20092112904e-03
  -5.91931890353e-02-j5.45815825333e-02
  -6.44287560668e-02-j1.12922176208e-01
  -8.07996794408e-02-j1.68258678336e-01
  -1.06858063791e-01-j2.17178401772e-01
  -1.39914867752e-01-j2.57124692234e-01
  -1.76617907212e-01-j2.86802380916e-01
  -2.13570976530e-01-j3.06203043560e-01
</dep>
<dep S[1,3] frequency>
  +1.07067181620e-01+j4.65587354297e-01
  +1.58144865497e-01+j4.48595416944e-01
  +2.04533623698e-01+j4.22364912329e-01
  +2.43815591842e-01+j3.88557481436e-01
  +2.74225243385e-01+j3.49678439577e-01
  +2.95029056223e-01+j3.08776976425e-01
  +3.06722706328e-01+j2.68938276358e-01
  +3.10924110673e-01+j2.32716546844e-01
  +3.09981632416e-01+j2.01716580058e-01
  +3.06457558340e-01+j1.76457909209e-01
  +3.02680147114e-01+j1.56506532349e-01
</dep>
<dep S[1,2] frequency>
  -1.07067181620e-01-j4.65587354297e-01
  -1.58144865497e-01-j4.48595416944e-01
  -2.04533623698e-01-j4.22364912329e-01
  -2.43815591842e-01-j3.88557481436e-01
  -2.74225243385e-01-j3.49678439577e-01
  -2.95029056223e-01-j3.08776976425e-01
  -3.06722706328e-01-j2.68938276358e-01
  -3.10924110673e-01-j2.32716546844e-01
  -3.09981632416e-01-j2.01716580058e-01
  -3.06457558340e-01-j1.76457909209e-01
  -3.02680147114e-01-j1.56506532349e-01
</dep>
<dep S[3,5] frequency>
  -4.17499584784e-02+j9.15562995367e-02
  -1.37477579199e-02+j7.52826050173e-02
  +7.79930738951e-03+j5.25981011484e-02
  +2.13723105108e-02+j2.56175903177e-02
  +2.61900294002e-02-j3.12858859488e-03
  +2.23632070324e-02-j3.10001993640e-02
  +1.08810326182e-02-j5.56318384029e-02
  -6.61073012759e-03-j7.52737865432e-02
  -2.81763268534e-02-j8.89602198463e-02
  -5.19631434942e-02-j9.64562660941e-02
  -7.64556921474e-02-j9.80403155585e-02
</dep>
<dep S[3,4] frequency>
  +4.17499584784e-02-j9.15562995367e-02
  +1.37477579199e-02-j7.52826050173e-02
  -7.79930738951e-03-j5.25981011484e-02
  -2.13723105108e-02-j2.56175903177e-02
  -2.61900294002e-02+j3.12858859488e-03
  -2.23632070324e-02+j3.10001993640e-02
  -1.08810326182e-02+j5.56318384029e-02
  +6.61073012759e-03+j7.52737865432e-02
  +2.81763268534e-02+j8.89602198463e-02
  +5.19631434942e-02+j9.64562660941e-02
  +7.64556921474e-02+j9.80403155585e-02
</dep>
<dep S[3,1] frequency>
  +1.07067181620e-01+j4.65587354297e-01
  +1.58144865497e-01+j4.48595416944e-01
  +2.04533623698e-01+j4.22364912329e-01
  +2.43815591842e-01+j3.88557481436e-01
  +2.74225243385e-01+j3.49678439577e-01
  +2.95029056223e-01+j3.08776976425e-01
  +3.06722706328e-01+j2.68938276358e-01
  +3.10924110673e-01+j2.32716546844e-01
  +3.09981632416e-01+j2.01716580058e-01
  +3.06457558340e-01+j1.76457909209e-01
  +3.02680147114e-01+j1.56506532349e-01
</dep>
<dep S[3,3] frequency>
  +3.62306136938e-01-j3.27223596204e-01
  +3.43759735289e-01-j3.40100016431e-01
  +3.23583033915e-01-j3.51063693891e-01
  +3.01484394023e-01-j3.59803246090e-01
  +2.77378779750e-01-j3.65601620943e-01
  +2.51648764054e-01-j3.67523196323e-01
  +2.25243440139e-01-j3.64740036694e-01
  +1.99555377884e-01-j3.56860433042e-01
  +1.76129691774e-01-j3.44116139050e-01
  +1.56339923787e-01-j3.27347410846e-01
  +1.41155570404e-01-j3.07833083259e-01
</dep>
<dep S[3,2] frequency>
  +4.85112113413e-01-j2.01193406190e-01
  +5.00112902303e-01-j1.93947005292e-01
  +5.16710192158e-01-j1.88584084402e-01
  +5.35195923639e-01-j1.85415797417e-01
  +5.55655436150e-01-j1.85158971636e-01
  +5.77706461896e-01-j1.88749008219e-01
  +6.00400214396e-01-j1.97013625571e-01
  +6.22344431998e-01-j2.10344319410e-01
  +6.41994309890e-01-j2.28509126600e-01
  +6.57976617159e-01-j2.50667585417e-01
  +6.69322169724e-01-j2.75540659284e-01
</dep>
<dep S[2,5] frequency>
  +4.17499584784e-02-j9.15562995367e-02
  +1.37477579199e-02-j7.52826050173e-02
  -7.79930738951e-03-j5.25981011484e-02
  -2.13723105108e-02-j2.56175903177e-02
  -2.61900294002e-02+j3.12858859488e-03
  -2.23632070324e-02+j3.10001993640e-02
  -1.08810326182e-02+j5.56318384029e-02
  +6.61073012759e-03+j7.52737865432e-02
  +2.81763268534e-02+j8.89602198463e-02
  +5.19631434942e-02+j9.64562660941e-02
  +7.64556921474e-02+j9.80403155585e-02
</dep>
<dep S[2,4] frequency>
  -4.17499584784e-02+j9.15562995367e-02
  -1.37477579199e-02+j7.52826050173e-02
  +7.79930738951e-03+j5.25981011484e-02
  +2.13723105108e-02+j2.56175903177e-02
  +2.61900294002e-02-j3.12858859488e-03
  +2.23632070324e-02-j3.10001993640e-02
  +1.08810326182e-02-j5.56318384029e-02
  -6.61073012759e-03-j7.52737865432e-02
  -2.81763268534e-02-j8.89602198463e-02
  -5.19631434942e-02-j9.64562660941e-02
  -7.64556921474e-02-j9.80403155585e-02
</dep>
<dep S[2,1] frequency>
  -1.07067181620e-01-j4.65587354297e-01
  -1.58144865497e-01-j4.48595416944e-01
  -2.04533623698e-01-j4.22364912329e-01
  -2.43815591842e-01-j3.88557481436e-01
  -2.74225243385e-01-j3.49678439577e-01
  -2.95029056223e-01-j3.08776976425e-01
  -3.06722706328e-01-j2.68938276358e-01
  -3.10924110673e-01-j2.32716546844e-01
  -3.09981632416e-01-j2.01716580058e-01
  -3.06457558340e-01-j1.76457909209e-01
  -3.02680147114e-01-j1.56506532349e-01
</dep>
<dep S[2,3] frequency>
  +4.85112113413e-01-j2.01193406190e-01
  +5.00112902303e-01-j1.93947005292e-01
  +5.16710192158e-01-j1.88584084402e-01
  +5.35195923639e-01-j1.85415797417e-01
  +5.55655436150e-01-j1.85158971636e-01
  +5.77706461896e-01-j1.88749008219e-01
  +6.00400214396e-01-j1.97013625571e-01
  +6.22344431998e-01-j2.10344319410e-01
  +6.41994309890e-01-j2.28509126600e-01
  +6.57976617159e-01-j2.50667585417e-01
  +6.69322169724e-01-j2.75540659284e-01
</dep>
<dep S[2,2] frequency>
  +3.62306136938e-01-j3.27223596204e-01
  +3.43759735289e-01-j3.40100016431e-01
  +3.23583033915e-01-j3.51063693891e-01
  +3.01484394023e-01-j3.59803246090e-01
  +2.77378779750e-01-j3.65601620943e-01
  +2.51648764054e-01-j3.67523196323e-01
  +2.25243440139e-01-j3.64740036694e-01
  +1.99555377884e-01-j3.56860433042e-01
  +1.76129691774e-01-j3.44116139050e-01
  +1.56339923787e-01-j3.27347410846e-01
  +1.41155570404e-01-j3.07833083259e-01
</dep>
