<Qucs Dataset 0.0.17>
<indep Z0 1>
  +1.45000000000e+02
</indep>
<indep Cs 1>
  +1.50000000000e-11
</indep>
<indep Riso 1>
  +5.40000000000e+01
</indep>
<indep frequency 11>
  +9.02000000000e+08
  +9.04600000000e+08
  +9.07200000000e+08
  +9.09800000000e+08
  +9.12400000000e+08
  +9.15000000000e+08
  +9.17600000000e+08
  +9.20200000000e+08
  +9.22800000000e+08
  +9.25400000000e+08
  +9.28000000000e+08
</indep>
<dep S[3,3] frequency>
  -9.86327864589e-02-j5.48917296627e-01
  -1.01299413770e-01-j5.46343799500e-01
  -1.03853551961e-01-j5.43723903207e-01
  -1.06294689872e-01-j5.41059424860e-01
  -1.08622197786e-01-j5.38352038910e-01
  -1.10835300270e-01-j5.35603293305e-01
  -1.12933049883e-01-j5.32814629297e-01
  -1.14914302177e-01-j5.29987404945e-01
  -1.16777692420e-01-j5.27122922354e-01
  -1.18521614500e-01-j5.24222458605e-01
  -1.20144202501e-01-j5.21287300327e-01
</dep>
<dep S[3,2] frequency>
  -1.76249295169e-01-j4.10619683679e-01
  -1.76593184900e-01-j4.12328403973e-01
  -1.77037734568e-01-j4.14076748562e-01
  -1.77583486634e-01-j4.15862983647e-01
  -1.78231102371e-01-j4.17685517349e-01
  -1.78981389017e-01-j4.19542883558e-01
  -1.79835326057e-01-j4.21433722131e-01
  -1.80794090218e-01-j4.23356755388e-01
  -1.81859078737e-01-j4.25310760886e-01
  -1.83031930449e-01-j4.27294540487e-01
  -1.84314544208e-01-j4.29306885792e-01
</dep>
<dep S[3,5] frequency>
  +3.12836595461e-02-j4.48659449918e-04
  +2.75180294379e-02-j1.75725768063e-03
  +2.36793639640e-02-j2.82595019348e-03
  +1.97802284907e-02-j3.64914052937e-03
  +1.58336347244e-02-j4.22182425946e-03
  +1.18530189227e-02-j4.53962141751e-03
  +7.85221831767e-03-j4.59880882587e-03
  +3.84544567254e-03-j4.39635231525e-03
  -1.52738124574e-04-j3.92993883483e-03
  -4.12745355400e-03-j3.19800844181e-03
  -8.06353419082e-03-j2.19978614586e-03
</dep>
<dep S[3,4] frequency>
  -3.12836595461e-02+j4.48659449918e-04
  -2.75180294379e-02+j1.75725768063e-03
  -2.36793639640e-02+j2.82595019348e-03
  -1.97802284907e-02+j3.64914052937e-03
  -1.58336347244e-02+j4.22182425946e-03
  -1.18530189227e-02+j4.53962141751e-03
  -7.85221831767e-03+j4.59880882587e-03
  -3.84544567254e-03+j4.39635231525e-03
  +1.52738124574e-04+j3.92993883483e-03
  +4.12745355400e-03+j3.19800844181e-03
  +8.06353419082e-03+j2.19978614586e-03
</dep>
<dep S[3,1] frequency>
  +4.70447849257e-01+j1.61594986569e-01
  +4.75109700091e-01+j1.51783455165e-01
  +4.79497626044e-01+j1.41762325059e-01
  +4.83600288877e-01+j1.31540339372e-01
  +4.87406576085e-01+j1.21126900934e-01
  +4.90905636637e-01+j1.10532075333e-01
  +4.94086917745e-01+j9.97665927359e-02
  +4.96940202754e-01+j8.88418484352e-02
  +4.99455650216e-01+j7.77699020557e-02
  +5.01623834279e-01+j6.65634753266e-02
  +5.03435786464e-01+j5.52359482970e-02
</dep>
<dep S[2,3] frequency>
  -1.76249295169e-01-j4.10619683679e-01
  -1.76593184900e-01-j4.12328403973e-01
  -1.77037734568e-01-j4.14076748562e-01
  -1.77583486634e-01-j4.15862983647e-01
  -1.78231102371e-01-j4.17685517349e-01
  -1.78981389017e-01-j4.19542883558e-01
  -1.79835326057e-01-j4.21433722131e-01
  -1.80794090218e-01-j4.23356755388e-01
  -1.81859078737e-01-j4.25310760886e-01
  -1.83031930449e-01-j4.27294540487e-01
  -1.84314544208e-01-j4.29306885792e-01
</dep>
<dep S[2,2] frequency>
  -9.86327864589e-02-j5.48917296627e-01
  -1.01299413770e-01-j5.46343799500e-01
  -1.03853551961e-01-j5.43723903207e-01
  -1.06294689872e-01-j5.41059424860e-01
  -1.08622197786e-01-j5.38352038910e-01
  -1.10835300270e-01-j5.35603293305e-01
  -1.12933049883e-01-j5.32814629297e-01
  -1.14914302177e-01-j5.29987404945e-01
  -1.16777692420e-01-j5.27122922354e-01
  -1.18521614500e-01-j5.24222458605e-01
  -1.20144202501e-01-j5.21287300327e-01
</dep>
<dep S[2,5] frequency>
  -3.12836595461e-02+j4.48659449918e-04
  -2.75180294379e-02+j1.75725768063e-03
  -2.36793639640e-02+j2.82595019348e-03
  -1.97802284907e-02+j3.64914052937e-03
  -1.58336347244e-02+j4.22182425946e-03
  -1.18530189227e-02+j4.53962141751e-03
  -7.85221831767e-03+j4.59880882587e-03
  -3.84544567254e-03+j4.39635231525e-03
  +1.52738124574e-04+j3.92993883483e-03
  +4.12745355400e-03+j3.19800844181e-03
  +8.06353419082e-03+j2.19978614586e-03
</dep>
<dep S[2,4] frequency>
  +3.12836595461e-02-j4.48659449918e-04
  +2.75180294379e-02-j1.75725768063e-03
  +2.36793639640e-02-j2.82595019348e-03
  +1.97802284907e-02-j3.64914052937e-03
  +1.58336347244e-02-j4.22182425946e-03
  +1.18530189227e-02-j4.53962141751e-03
  +7.85221831767e-03-j4.59880882587e-03
  +3.84544567254e-03-j4.39635231525e-03
  -1.52738124574e-04-j3.92993883483e-03
  -4.12745355400e-03-j3.19800844181e-03
  -8.06353419082e-03-j2.19978614586e-03
</dep>
<dep S[2,1] frequency>
  -4.70447849257e-01-j1.61594986569e-01
  -4.75109700091e-01-j1.51783455165e-01
  -4.79497626044e-01-j1.41762325059e-01
  -4.83600288877e-01-j1.31540339372e-01
  -4.87406576085e-01-j1.21126900934e-01
  -4.90905636637e-01-j1.10532075333e-01
  -4.94086917745e-01-j9.97665927359e-02
  -4.96940202754e-01-j8.88418484352e-02
  -4.99455650216e-01-j7.77699020557e-02
  -5.01623834279e-01-j6.65634753266e-02
  -5.03435786464e-01-j5.52359482970e-02
</dep>
<dep S[5,3] frequency>
  +3.12836595461e-02-j4.48659449918e-04
  +2.75180294379e-02-j1.75725768063e-03
  +2.36793639640e-02-j2.82595019348e-03
  +1.97802284907e-02-j3.64914052937e-03
  +1.58336347244e-02-j4.22182425946e-03
  +1.18530189227e-02-j4.53962141751e-03
  +7.85221831767e-03-j4.59880882587e-03
  +3.84544567254e-03-j4.39635231525e-03
  -1.52738124574e-04-j3.92993883483e-03
  -4.12745355400e-03-j3.19800844181e-03
  -8.06353419082e-03-j2.19978614586e-03
</dep>
<dep S[5,2] frequency>
  -3.12836595461e-02+j4.48659449918e-04
  -2.75180294379e-02+j1.75725768063e-03
  -2.36793639640e-02+j2.82595019348e-03
  -1.97802284907e-02+j3.64914052937e-03
  -1.58336347244e-02+j4.22182425946e-03
  -1.18530189227e-02+j4.53962141751e-03
  -7.85221831767e-03+j4.59880882587e-03
  -3.84544567254e-03+j4.39635231525e-03
  +1.52738124574e-04+j3.92993883483e-03
  +4.12745355400e-03+j3.19800844181e-03
  +8.06353419082e-03+j2.19978614586e-03
</dep>
<dep S[5,5] frequency>
  -9.86327864589e-02-j5.48917296627e-01
  -1.01299413770e-01-j5.46343799500e-01
  -1.03853551961e-01-j5.43723903207e-01
  -1.06294689872e-01-j5.41059424860e-01
  -1.08622197786e-01-j5.38352038910e-01
  -1.10835300270e-01-j5.35603293305e-01
  -1.12933049883e-01-j5.32814629297e-01
  -1.14914302177e-01-j5.29987404945e-01
  -1.16777692420e-01-j5.27122922354e-01
  -1.18521614500e-01-j5.24222458605e-01
  -1.20144202501e-01-j5.21287300327e-01
</dep>
<dep S[5,4] frequency>
  -1.76249295169e-01-j4.10619683679e-01
  -1.76593184900e-01-j4.12328403973e-01
  -1.77037734568e-01-j4.14076748562e-01
  -1.77583486634e-01-j4.15862983647e-01
  -1.78231102371e-01-j4.17685517349e-01
  -1.78981389017e-01-j4.19542883558e-01
  -1.79835326057e-01-j4.21433722131e-01
  -1.80794090218e-01-j4.23356755388e-01
  -1.81859078737e-01-j4.25310760886e-01
  -1.83031930449e-01-j4.27294540487e-01
  -1.84314544208e-01-j4.29306885792e-01
</dep>
<dep S[5,1] frequency>
  +1.53171406423e-01-j4.61734781956e-01
  +1.43479771584e-01-j4.64697167004e-01
  +1.33722500292e-01-j4.67462628715e-01
  +1.23902638051e-01-j4.70031634732e-01
  +1.14022923709e-01-j4.72404665901e-01
  +1.04085783812e-01-j4.74582176968e-01
  +9.40933308396e-02-j4.76564555414e-01
  +8.40473656812e-02-j4.78352078707e-01
  +7.39493846487e-02-j4.79944870353e-01
  +6.38005913588e-02-j4.81342855134e-01
  +5.36019137533e-02-j4.82545713988e-01
</dep>
<dep S[4,3] frequency>
  -3.12836595461e-02+j4.48659449918e-04
  -2.75180294379e-02+j1.75725768063e-03
  -2.36793639640e-02+j2.82595019348e-03
  -1.97802284907e-02+j3.64914052937e-03
  -1.58336347244e-02+j4.22182425946e-03
  -1.18530189227e-02+j4.53962141751e-03
  -7.85221831767e-03+j4.59880882587e-03
  -3.84544567254e-03+j4.39635231525e-03
  +1.52738124574e-04+j3.92993883483e-03
  +4.12745355400e-03+j3.19800844181e-03
  +8.06353419082e-03+j2.19978614586e-03
</dep>
<dep S[4,2] frequency>
  +3.12836595461e-02-j4.48659449918e-04
  +2.75180294379e-02-j1.75725768063e-03
  +2.36793639640e-02-j2.82595019348e-03
  +1.97802284907e-02-j3.64914052937e-03
  +1.58336347244e-02-j4.22182425946e-03
  +1.18530189227e-02-j4.53962141751e-03
  +7.85221831767e-03-j4.59880882587e-03
  +3.84544567254e-03-j4.39635231525e-03
  -1.52738124574e-04-j3.92993883483e-03
  -4.12745355400e-03-j3.19800844181e-03
  -8.06353419082e-03-j2.19978614586e-03
</dep>
<dep S[4,5] frequency>
  -1.76249295169e-01-j4.10619683679e-01
  -1.76593184900e-01-j4.12328403973e-01
  -1.77037734568e-01-j4.14076748562e-01
  -1.77583486634e-01-j4.15862983647e-01
  -1.78231102371e-01-j4.17685517349e-01
  -1.78981389017e-01-j4.19542883558e-01
  -1.79835326057e-01-j4.21433722131e-01
  -1.80794090218e-01-j4.23356755388e-01
  -1.81859078737e-01-j4.25310760886e-01
  -1.83031930449e-01-j4.27294540487e-01
  -1.84314544208e-01-j4.29306885792e-01
</dep>
<dep S[4,4] frequency>
  -9.86327864589e-02-j5.48917296627e-01
  -1.01299413770e-01-j5.46343799500e-01
  -1.03853551961e-01-j5.43723903207e-01
  -1.06294689872e-01-j5.41059424860e-01
  -1.08622197786e-01-j5.38352038910e-01
  -1.10835300270e-01-j5.35603293305e-01
  -1.12933049883e-01-j5.32814629297e-01
  -1.14914302177e-01-j5.29987404945e-01
  -1.16777692420e-01-j5.27122922354e-01
  -1.18521614500e-01-j5.24222458605e-01
  -1.20144202501e-01-j5.21287300327e-01
</dep>
<dep S[4,1] frequency>
  -1.53171406423e-01+j4.61734781956e-01
  -1.43479771584e-01+j4.64697167004e-01
  -1.33722500292e-01+j4.67462628715e-01
  -1.23902638051e-01+j4.70031634732e-01
  -1.14022923709e-01+j4.72404665901e-01
  -1.04085783812e-01+j4.74582176968e-01
  -9.40933308396e-02+j4.76564555414e-01
  -8.40473656812e-02+j4.78352078707e-01
  -7.39493846487e-02+j4.79944870353e-01
  -6.38005913588e-02+j4.81342855134e-01
  -5.36019137533e-02+j4.82545713988e-01
</dep>
<dep S[1,3] frequency>
  +4.70447849257e-01+j1.61594986569e-01
  +4.75109700091e-01+j1.51783455165e-01
  +4.79497626044e-01+j1.41762325059e-01
  +4.83600288877e-01+j1.31540339372e-01
  +4.87406576085e-01+j1.21126900934e-01
  +4.90905636637e-01+j1.10532075333e-01
  +4.94086917745e-01+j9.97665927359e-02
  +4.96940202754e-01+j8.88418484352e-02
  +4.99455650216e-01+j7.77699020557e-02
  +5.01623834279e-01+j6.65634753266e-02
  +5.03435786464e-01+j5.52359482970e-02
</dep>
<dep S[1,2] frequency>
  -4.70447849257e-01-j1.61594986569e-01
  -4.75109700091e-01-j1.51783455165e-01
  -4.79497626044e-01-j1.41762325059e-01
  -4.83600288877e-01-j1.31540339372e-01
  -4.87406576085e-01-j1.21126900934e-01
  -4.90905636637e-01-j1.10532075333e-01
  -4.94086917745e-01-j9.97665927359e-02
  -4.96940202754e-01-j8.88418484352e-02
  -4.99455650216e-01-j7.77699020557e-02
  -5.01623834279e-01-j6.65634753266e-02
  -5.03435786464e-01-j5.52359482970e-02
</dep>
<dep S[1,5] frequency>
  +1.53171406423e-01-j4.61734781956e-01
  +1.43479771584e-01-j4.64697167004e-01
  +1.33722500292e-01-j4.67462628715e-01
  +1.23902638051e-01-j4.70031634732e-01
  +1.14022923709e-01-j4.72404665901e-01
  +1.04085783812e-01-j4.74582176968e-01
  +9.40933308396e-02-j4.76564555414e-01
  +8.40473656812e-02-j4.78352078707e-01
  +7.39493846487e-02-j4.79944870353e-01
  +6.38005913588e-02-j4.81342855134e-01
  +5.36019137533e-02-j4.82545713988e-01
</dep>
<dep S[1,4] frequency>
  -1.53171406423e-01+j4.61734781956e-01
  -1.43479771584e-01+j4.64697167004e-01
  -1.33722500292e-01+j4.67462628715e-01
  -1.23902638051e-01+j4.70031634732e-01
  -1.14022923709e-01+j4.72404665901e-01
  -1.04085783812e-01+j4.74582176968e-01
  -9.40933308396e-02+j4.76564555414e-01
  -8.40473656812e-02+j4.78352078707e-01
  -7.39493846487e-02+j4.79944870353e-01
  -6.38005913588e-02+j4.81342855134e-01
  -5.36019137533e-02+j4.82545713988e-01
</dep>
<dep S[1,1] frequency>
  -3.82707244558e-02+j4.57878573270e-02
  -3.40969320747e-02+j3.93280213476e-02
  -3.00651727003e-02+j3.28077181276e-02
  -2.61736032400e-02+j2.62309368065e-02
  -2.24201201771e-02+j1.96013289027e-02
  -1.88023912803e-02+j1.29221754187e-02
  -1.53178916134e-02+j6.19635601990e-03
  -1.19639438192e-02-j5.73679213780e-04
  -8.73776259727e-03-j7.38593494650e-03
  -5.63650324957e-03-j1.42388921196e-02
  -2.65731410577e-03-j2.11315253096e-02
</dep>
