<Qucs Dataset 0.0.17>
<indep Z0 1>
  +1.45000000000e+02
</indep>
<indep Riso 1>
  +5.40000000000e+01
</indep>
<indep frequency 11>
  +4.07000000000e+08
  +4.12000000000e+08
  +4.17000000000e+08
  +4.22000000000e+08
  +4.27000000000e+08
  +4.32000000000e+08
  +4.37000000000e+08
  +4.42000000000e+08
  +4.47000000000e+08
  +4.52000000000e+08
  +4.57000000000e+08
</indep>
<dep S[5,5] frequency>
  +2.96404850312e-01-j3.38749964896e-01
  +2.91043486002e-01-j3.56913856720e-01
  +2.84446116411e-01-j3.74595751041e-01
  +2.76728129292e-01-j3.91718179598e-01
  +2.67996540090e-01-j4.08235486035e-01
  +2.58341028829e-01-j4.24125973917e-01
  +2.47828714367e-01-j4.39381599805e-01
  +2.36503249657e-01-j4.53996772683e-01
  +2.24388217674e-01-j4.67957898477e-01
  +2.11494232406e-01-j4.81235177128e-01
  +1.97828658543e-01-j4.93777848431e-01
</dep>
<dep S[5,4] frequency>
  +2.13920260145e-01-j5.18720419618e-01
  +2.09992382056e-01-j5.06013924847e-01
  +2.07291406810e-01-j4.93661175105e-01
  +2.05703959484e-01-j4.81740578302e-01
  +2.05124995869e-01-j4.70298760098e-01
  +2.05466765441e-01-j4.59358414422e-01
  +2.06664037006e-01-j4.48928608961e-01
  +2.08675003373e-01-j4.39015984323e-01
  +2.11477885425e-01-j4.29635208120e-01
  +2.15063831144e-01-j4.20817176530e-01
  +2.19427195993e-01-j4.12613767112e-01
</dep>
<dep S[5,1] frequency>
  +4.72662888454e-01-j8.53398579224e-03
  +4.71336071163e-01-j3.72300417651e-02
  +4.68026054162e-01-j6.57521402352e-02
  +4.62823983194e-01-j9.39816359074e-02
  +4.55812321133e-01-j1.21837875590e-01
  +4.47051593768e-01-j1.49269339301e-01
  +4.36571324244e-01-j1.76240574252e-01
  +4.24366367748e-01-j2.02716692479e-01
  +4.10399155699e-01-j2.28647490161e-01
  +3.94607621273e-01-j2.53953284286e-01
  +3.76917873020e-01-j2.78514362587e-01
</dep>
<dep S[5,3] frequency>
  -1.26108037606e-01+j2.51619641447e-02
  -1.14338077135e-01+j3.10908094637e-02
  -1.01988556267e-01+j3.49700308169e-02
  -8.94260715329e-02+j3.67029414195e-02
  -7.70325743338e-02+j3.62649165825e-02
  -6.51902168953e-02+j3.37043173582e-02
  -5.42670349507e-02+j2.91403301104e-02
  -4.46038844582e-02+j2.27583175936e-02
  -3.65027804215e-02+j1.48031625601e-02
  -3.02166740796e-02+j5.57088404283e-03
  -2.59407583477e-02-j4.60137298767e-03
</dep>
<dep S[5,2] frequency>
  +1.26108037606e-01-j2.51619641447e-02
  +1.14338077135e-01-j3.10908094637e-02
  +1.01988556267e-01-j3.49700308169e-02
  +8.94260715329e-02-j3.67029414195e-02
  +7.70325743338e-02-j3.62649165825e-02
  +6.51902168953e-02-j3.37043173582e-02
  +5.42670349507e-02-j2.91403301104e-02
  +4.46038844582e-02-j2.27583175936e-02
  +3.65027804215e-02-j1.48031625601e-02
  +3.02166740796e-02-j5.57088404283e-03
  +2.59407583477e-02+j4.60137298767e-03
</dep>
<dep S[4,5] frequency>
  +2.13920260145e-01-j5.18720419618e-01
  +2.09992382056e-01-j5.06013924847e-01
  +2.07291406810e-01-j4.93661175105e-01
  +2.05703959484e-01-j4.81740578302e-01
  +2.05124995869e-01-j4.70298760098e-01
  +2.05466765441e-01-j4.59358414422e-01
  +2.06664037006e-01-j4.48928608961e-01
  +2.08675003373e-01-j4.39015984323e-01
  +2.11477885425e-01-j4.29635208120e-01
  +2.15063831144e-01-j4.20817176530e-01
  +2.19427195993e-01-j4.12613767112e-01
</dep>
<dep S[4,4] frequency>
  +2.96404850312e-01-j3.38749964896e-01
  +2.91043486002e-01-j3.56913856720e-01
  +2.84446116411e-01-j3.74595751041e-01
  +2.76728129292e-01-j3.91718179598e-01
  +2.67996540090e-01-j4.08235486035e-01
  +2.58341028829e-01-j4.24125973917e-01
  +2.47828714367e-01-j4.39381599805e-01
  +2.36503249657e-01-j4.53996772683e-01
  +2.24388217674e-01-j4.67957898477e-01
  +2.11494232406e-01-j4.81235177128e-01
  +1.97828658543e-01-j4.93777848431e-01
</dep>
<dep S[4,1] frequency>
  -4.72662888454e-01+j8.53398579224e-03
  -4.71336071163e-01+j3.72300417651e-02
  -4.68026054162e-01+j6.57521402352e-02
  -4.62823983194e-01+j9.39816359074e-02
  -4.55812321133e-01+j1.21837875590e-01
  -4.47051593768e-01+j1.49269339301e-01
  -4.36571324244e-01+j1.76240574252e-01
  -4.24366367748e-01+j2.02716692479e-01
  -4.10399155699e-01+j2.28647490161e-01
  -3.94607621273e-01+j2.53953284286e-01
  -3.76917873020e-01+j2.78514362587e-01
</dep>
<dep S[4,3] frequency>
  +1.26108037606e-01-j2.51619641447e-02
  +1.14338077135e-01-j3.10908094637e-02
  +1.01988556267e-01-j3.49700308169e-02
  +8.94260715329e-02-j3.67029414195e-02
  +7.70325743338e-02-j3.62649165825e-02
  +6.51902168953e-02-j3.37043173582e-02
  +5.42670349507e-02-j2.91403301104e-02
  +4.46038844582e-02-j2.27583175936e-02
  +3.65027804215e-02-j1.48031625601e-02
  +3.02166740796e-02-j5.57088404283e-03
  +2.59407583477e-02+j4.60137298767e-03
</dep>
<dep S[4,2] frequency>
  -1.26108037606e-01+j2.51619641447e-02
  -1.14338077135e-01+j3.10908094637e-02
  -1.01988556267e-01+j3.49700308169e-02
  -8.94260715329e-02+j3.67029414195e-02
  -7.70325743338e-02+j3.62649165825e-02
  -6.51902168953e-02+j3.37043173582e-02
  -5.42670349507e-02+j2.91403301104e-02
  -4.46038844582e-02+j2.27583175936e-02
  -3.65027804215e-02+j1.48031625601e-02
  -3.02166740796e-02+j5.57088404283e-03
  -2.59407583477e-02-j4.60137298767e-03
</dep>
<dep S[1,5] frequency>
  +4.72662888454e-01-j8.53398579224e-03
  +4.71336071163e-01-j3.72300417651e-02
  +4.68026054162e-01-j6.57521402352e-02
  +4.62823983194e-01-j9.39816359074e-02
  +4.55812321133e-01-j1.21837875590e-01
  +4.47051593768e-01-j1.49269339301e-01
  +4.36571324244e-01-j1.76240574252e-01
  +4.24366367748e-01-j2.02716692479e-01
  +4.10399155699e-01-j2.28647490161e-01
  +3.94607621273e-01-j2.53953284286e-01
  +3.76917873020e-01-j2.78514362587e-01
</dep>
<dep S[1,4] frequency>
  -4.72662888454e-01+j8.53398579224e-03
  -4.71336071163e-01+j3.72300417651e-02
  -4.68026054162e-01+j6.57521402352e-02
  -4.62823983194e-01+j9.39816359074e-02
  -4.55812321133e-01+j1.21837875590e-01
  -4.47051593768e-01+j1.49269339301e-01
  -4.36571324244e-01+j1.76240574252e-01
  -4.24366367748e-01+j2.02716692479e-01
  -4.10399155699e-01+j2.28647490161e-01
  -3.94607621273e-01+j2.53953284286e-01
  -3.76917873020e-01+j2.78514362587e-01
</dep>
<dep S[1,1] frequency>
  -3.45892098462e-02+j2.67287747290e-01
  -1.93968140087e-02+j2.45215258725e-01
  -5.66099287356e-03+j2.22626013819e-01
  +6.73145812854e-03+j1.99616233537e-01
  +1.78875096186e-02+j1.76226793495e-01
  +2.78883308663e-02+j1.52451276956e-01
  +3.67738561580e-02+j1.28250520865e-01
  +4.45335248017e-02+j1.03571817823e-01
  +5.11044809034e-02+j7.83703616568e-02
  +5.63776395445e-02+j5.26302220700e-02
  +6.02110921449e-02+j2.63821152163e-02
</dep>
<dep S[1,3] frequency>
  +2.07859976681e-02+j4.70702219351e-01
  +4.75690329115e-02+j4.79408318814e-01
  +7.59698571463e-02+j4.85414670338e-01
  +1.05579023855e-01+j4.88465320638e-01
  +1.35946583463e-01+j4.88383611458e-01
  +1.66599316946e-01+j4.85077504741e-01
  +1.97057826216e-01+j4.78541237607e-01
  +2.26852940510e-01+j4.68853899446e-01
  +2.55541251720e-01+j4.56175402763e-01
  +2.82719755441e-01+j4.40740050335e-01
  +3.08039507046e-01+j4.22847621250e-01
</dep>
<dep S[1,2] frequency>
  -2.07859976681e-02-j4.70702219351e-01
  -4.75690329115e-02-j4.79408318814e-01
  -7.59698571463e-02-j4.85414670338e-01
  -1.05579023855e-01-j4.88465320638e-01
  -1.35946583463e-01-j4.88383611458e-01
  -1.66599316946e-01-j4.85077504741e-01
  -1.97057826216e-01-j4.78541237607e-01
  -2.26852940510e-01-j4.68853899446e-01
  -2.55541251720e-01-j4.56175402763e-01
  -2.82719755441e-01-j4.40740050335e-01
  -3.08039507046e-01-j4.22847621250e-01
</dep>
<dep S[3,5] frequency>
  -1.26108037606e-01+j2.51619641447e-02
  -1.14338077135e-01+j3.10908094637e-02
  -1.01988556267e-01+j3.49700308169e-02
  -8.94260715329e-02+j3.67029414195e-02
  -7.70325743338e-02+j3.62649165825e-02
  -6.51902168953e-02+j3.37043173582e-02
  -5.42670349507e-02+j2.91403301104e-02
  -4.46038844582e-02+j2.27583175936e-02
  -3.65027804215e-02+j1.48031625601e-02
  -3.02166740796e-02+j5.57088404283e-03
  -2.59407583477e-02-j4.60137298767e-03
</dep>
<dep S[3,4] frequency>
  +1.26108037606e-01-j2.51619641447e-02
  +1.14338077135e-01-j3.10908094637e-02
  +1.01988556267e-01-j3.49700308169e-02
  +8.94260715329e-02-j3.67029414195e-02
  +7.70325743338e-02-j3.62649165825e-02
  +6.51902168953e-02-j3.37043173582e-02
  +5.42670349507e-02-j2.91403301104e-02
  +4.46038844582e-02-j2.27583175936e-02
  +3.65027804215e-02-j1.48031625601e-02
  +3.02166740796e-02-j5.57088404283e-03
  +2.59407583477e-02+j4.60137298767e-03
</dep>
<dep S[3,1] frequency>
  +2.07859976681e-02+j4.70702219351e-01
  +4.75690329115e-02+j4.79408318814e-01
  +7.59698571463e-02+j4.85414670338e-01
  +1.05579023855e-01+j4.88465320638e-01
  +1.35946583463e-01+j4.88383611458e-01
  +1.66599316946e-01+j4.85077504741e-01
  +1.97057826216e-01+j4.78541237607e-01
  +2.26852940510e-01+j4.68853899446e-01
  +2.55541251720e-01+j4.56175402763e-01
  +2.82719755441e-01+j4.40740050335e-01
  +3.08039507046e-01+j4.22847621250e-01
</dep>
<dep S[3,3] frequency>
  +2.96007673176e-01-j3.49350984644e-01
  +2.89364305231e-01-j3.67765038267e-01
  +2.81413704921e-01-j3.85514273906e-01
  +2.72301431630e-01-j4.02505262391e-01
  +2.62167994951e-01-j4.18682049985e-01
  +2.51138731791e-01-j4.34018931519e-01
  +2.39317337994e-01-j4.48510535682e-01
  +2.26783668759e-01-j4.62160791964e-01
  +2.13595805170e-01-j4.74972416205e-01
  +1.99795809544e-01-j4.86938403939e-01
  +1.85418117430e-01-j4.98036696337e-01
</dep>
<dep S[3,2] frequency>
  +2.14317437280e-01-j5.08119399870e-01
  +2.11671562826e-01-j4.95162743301e-01
  +2.10323818301e-01-j4.82742652239e-01
  +2.10130657146e-01-j4.70953495509e-01
  +2.10953541008e-01-j4.59852196148e-01
  +2.12669062480e-01-j4.49465456820e-01
  +2.15175413379e-01-j4.39799673084e-01
  +2.18394584272e-01-j4.30851965042e-01
  +2.22270297929e-01-j4.22620690392e-01
  +2.26762254007e-01-j4.15113949719e-01
  +2.31837737106e-01-j4.08354919207e-01
</dep>
<dep S[2,5] frequency>
  +1.26108037606e-01-j2.51619641447e-02
  +1.14338077135e-01-j3.10908094637e-02
  +1.01988556267e-01-j3.49700308169e-02
  +8.94260715329e-02-j3.67029414195e-02
  +7.70325743338e-02-j3.62649165825e-02
  +6.51902168953e-02-j3.37043173582e-02
  +5.42670349507e-02-j2.91403301104e-02
  +4.46038844582e-02-j2.27583175936e-02
  +3.65027804215e-02-j1.48031625601e-02
  +3.02166740796e-02-j5.57088404283e-03
  +2.59407583477e-02+j4.60137298767e-03
</dep>
<dep S[2,4] frequency>
  -1.26108037606e-01+j2.51619641447e-02
  -1.14338077135e-01+j3.10908094637e-02
  -1.01988556267e-01+j3.49700308169e-02
  -8.94260715329e-02+j3.67029414195e-02
  -7.70325743338e-02+j3.62649165825e-02
  -6.51902168953e-02+j3.37043173582e-02
  -5.42670349507e-02+j2.91403301104e-02
  -4.46038844582e-02+j2.27583175936e-02
  -3.65027804215e-02+j1.48031625601e-02
  -3.02166740796e-02+j5.57088404283e-03
  -2.59407583477e-02-j4.60137298767e-03
</dep>
<dep S[2,1] frequency>
  -2.07859976681e-02-j4.70702219351e-01
  -4.75690329115e-02-j4.79408318814e-01
  -7.59698571463e-02-j4.85414670338e-01
  -1.05579023855e-01-j4.88465320638e-01
  -1.35946583463e-01-j4.88383611458e-01
  -1.66599316946e-01-j4.85077504741e-01
  -1.97057826216e-01-j4.78541237607e-01
  -2.26852940510e-01-j4.68853899446e-01
  -2.55541251720e-01-j4.56175402763e-01
  -2.82719755441e-01-j4.40740050335e-01
  -3.08039507046e-01-j4.22847621250e-01
</dep>
<dep S[2,3] frequency>
  +2.14317437280e-01-j5.08119399870e-01
  +2.11671562826e-01-j4.95162743301e-01
  +2.10323818301e-01-j4.82742652239e-01
  +2.10130657146e-01-j4.70953495509e-01
  +2.10953541008e-01-j4.59852196148e-01
  +2.12669062480e-01-j4.49465456820e-01
  +2.15175413379e-01-j4.39799673084e-01
  +2.18394584272e-01-j4.30851965042e-01
  +2.22270297929e-01-j4.22620690392e-01
  +2.26762254007e-01-j4.15113949719e-01
  +2.31837737106e-01-j4.08354919207e-01
</dep>
<dep S[2,2] frequency>
  +2.96007673176e-01-j3.49350984644e-01
  +2.89364305231e-01-j3.67765038267e-01
  +2.81413704921e-01-j3.85514273906e-01
  +2.72301431630e-01-j4.02505262391e-01
  +2.62167994951e-01-j4.18682049985e-01
  +2.51138731791e-01-j4.34018931519e-01
  +2.39317337994e-01-j4.48510535682e-01
  +2.26783668759e-01-j4.62160791964e-01
  +2.13595805170e-01-j4.74972416205e-01
  +1.99795809544e-01-j4.86938403939e-01
  +1.85418117430e-01-j4.98036696337e-01
</dep>
